!Created with skrf (http://scikit-rf.org).
# GHz S RI R 50 
!freq ReS11 ImS11
0.0 -0.9607843137254901 -1.059382074785988e-83
0.03301650825412706 -0.0022360279730982103 -0.032506831922594424
0.06603301650825412 -0.009145947411826212 -0.06435644151781497
0.0990495247623812 -0.020484062519574235 -0.09491282552690318
0.13206603301650824 -0.035991319249002465 -0.12358106474641738
0.16508254127063532 -0.055321444080651344 -0.1498246273912008
0.1980990495247624 -0.07805571621247587 -0.17317917254238174
0.23111555777888945 -0.10371987082603282 -0.19326226508294292
0.2641320660330165 -0.13180193592848366 -0.20977879213177464
0.2971485742871436 -0.1617698658343601 -0.2225222280724407
0.33016508254127064 -0.19308799740323687 -0.23137219033863482
0.3631815907953977 -0.2252315852724496 -0.23628893606238865
0.3961980990495248 -0.25769893115283166 -0.23730556220410418
0.4292146073036518 -0.29002087534576215 -0.23451869521801597
0.4622311155577789 -0.32176764000342617 -0.2280784073093227
0.4952476238119059 -0.3525531876126394 -0.21817799674203814
0.528264132066033 -0.38203737891585227 -0.20504414187407718
0.56128064032016 -0.4099262840558306 -0.18892780227584882
0.5942971485742872 -0.43597102645576596 -0.170096110448561
0.6273136568284142 -0.4599655307862102 -0.14882538414899016
0.6603301650825413 -0.4817435148161141 -0.125395297250303
0.6933466733366683 -0.5011750195624636 -0.10008417773411643
0.7263631815907954 -0.5181627207733532 -0.07316535347683013
0.7593796898449224 -0.5326382132222894 -0.044904437047270596
0.7923961980990496 -0.5445584114473114 -0.015557426156328432
0.8254127063531765 -0.5539021686874049 0.014630506995830276
0.8584292146073036 -0.5606671808331297 0.04542565980865995
0.8914457228614306 -0.564867214304387 0.07660598974154723
0.9244622311155578 -0.5665296754092252 0.10796095194992208
0.9574787393696849 -0.5656935231198817 0.13929107171262678
0.9904952476238118 -0.5624075163913351 0.17040732619493412
1.023511755877939 -0.5567287802023853 0.20113039790760134
1.056528264132066 -0.5487216705463036 0.23128985138153818
1.089544772386193 -0.5384569168700791 0.2607232753080631
1.12256128064032 -0.5260110203092582 0.28927542476682266
1.1555777888944472 -0.5114658869550496 0.31679739214626085
1.1885942971485743 -0.49490867688934237 0.34314583086375394
1.2216108054027013 -0.47643185148309797 0.3681822528917622
1.2546273136568284 -0.45613340319096984 0.3917724192577141
1.2876438219109554 -0.4341172535529237 0.4137858419716828
1.3206603301650826 -0.4104938061245314 0.43409541611164437
1.3536768384192095 -0.38538064140825123 0.45257720192511625
1.3866933466733367 -0.35890334035759863 0.46911037864518557
1.4197098549274638 -0.33119642147706707 0.48357739410752965
1.4527263631815908 -0.3024043737335479 0.49586433699963733
1.485742871435718 -0.27268276320822493 0.5058615614298105
1.5187593796898449 -0.24219938542377206 0.5134645961541204
1.5517758879439718 -0.2111354273610823 0.5185753728292333
1.5847923961980992 -0.179686593147972 0.5211038085285279
1.6178089044522261 -0.14806413514907918 0.5209697767803273
1.650825412706353 -0.1164957177333486 0.5181054977052016
1.6838419209604802 -0.08522602457516332 0.5124583704160626
1.7168584292146072 -0.05451700249830688 0.5039942585172447
1.7498749374687343 -0.024647616567362973 0.4927012210130941
1.7828914457228613 0.004087026106456976 0.4785936549359856
1.8159079539769885 0.03137734034461412 0.4617167814360006
1.8489244622311156 0.05690187889005201 0.44215136329710475
1.8819409704852426 0.08033106236557999 0.4200184890219535
1.9149574787393697 0.10133216851055166 0.39548419817271047
1.9479739869934967 0.11957569024615222 0.3687636577170271
1.9809904952476236 0.1347431128081389 0.340124535042159
2.0140070035017508 0.1465360740536163 0.3098891578761594
2.047023511755878 0.154686758201492 0.27843501482426175
2.080040020010005 0.15896923456189954 0.2461931446437819
2.113056528264132 0.1592112971748994 0.21364400029079764
2.146073036518259 0.1553062025931596 0.18131046608473866
2.179089544772386 0.14722356110895765 0.1497478594897373
2.2121060530265133 0.13501853584835646 0.1195309618430445
2.24512256128064 0.11883847004157379 0.09123838340230112
2.278139069534767 0.09892611784390004 0.06543485421256354
2.3111555777888944 0.075618811821999 0.04265230969870705
2.3441720860430215 0.04934315988521002 0.02337086794485934
2.3771885942971487 0.02060520762407495 0.008000933557350097
2.410205102551276 -0.01002360730810057 -0.0031323217264908275
2.4432216108054026 -0.041923993292486215 -0.009800975117540807
2.4762381190595297 -0.07444878718453447 -0.011881995725004603
2.509254627313657 -0.1069441053514801 -0.009360005845711025
2.5422711355677836 -0.13877029825719925 -0.0023250706894807306
2.5752876438219108 -0.16932140323805764 0.009034154296246948
2.608304152076038 -0.19804198512545332 0.024441225301401207
2.641320660330165 -0.22444055035815008 0.04354570255851765
2.674337168584292 -0.2480990701967474 0.06593883216232746
2.707353676838419 -0.26867850287661277 0.0911699997799886
2.740370185092546 -0.28592051972209986 0.11876293238357986
2.7733866933466733 -0.299645885904003 0.14823079878774575
2.8064032016008005 -0.3097501075950356 0.17908958061453373
2.8394197098549276 -0.31619703325263093 0.21086931863823483
2.8724362181090544 -0.3190110983125015 0.24312305769980375
2.9054527263631815 -0.31826884710677994 0.2754334976476096
2.9384692346173087 -0.31409027307411896 0.3074174982621479
2.971485742871436 -0.3066304069514485 0.33872868089134633
3.0045022511255626 -0.2960714679843267 0.36905842231903524
3.0375187593796897 -0.2826157863687691 0.3981355544008034
3.070535267633817 -0.2664796129893169 0.42572507482719496
3.1035517758879436 -0.24788785823997717 0.451626148512794
3.136568284142071 -0.22706974573337813 0.4756696430090214
3.1695847923961984 -0.2042553276017288 0.49771540093488364
3.202601300650325 -0.17967278341876208 0.5176494120416713
3.2356178089044523 -0.15354641166379507 0.53538101003133
3.2686343171585794 -0.12609521826901063 0.5508401862742696
3.301650825412706 -0.09753200858369046 0.5639750848379562
3.3346673336668333 -0.0680628949092309 0.5747497208130821
3.3676838419209605 -0.037887139904606765 0.5831419464685811
3.4007003501750876 -0.007197265351350346 0.5891416767092235
3.4337168584292144 0.02382063491841352 0.5927493759810241
3.4667333666833415 0.05498643030979469 0.5939748024900695
3.4997498749374687 0.08612538142023643 0.5928360017314238
3.5327663831915954 0.11706749830058436 0.5893585392970944
3.5657828914457226 0.14764686106988395 0.5835749622542865
3.59879939969985 0.17770093059201672 0.5755244786417831
3.631815907953977 0.20706987381572067 0.5652528454740122
3.664832416208104 0.2355959264612607 0.552812456773211
3.6978489244622312 0.26312281494916645 0.5382626243125589
3.7308654327163584 0.2894952597445541 0.5216700447131928
3.763881940970485 0.3145585835652958 0.5031094470705336
3.7968984492246123 0.33815845009492135 0.48266441516135133
3.8299149574787394 0.3601407618549477 0.4604283772576359
3.862931465732866 0.38035174959749146 0.4365057543781672
3.8959479739869933 0.3986382897974337 0.4110132541458906
3.9289644822411205 0.4148484912980425 0.38408129196336444
3.961980990495247 0.428832596533115 0.35585551362472245
3.9949974987493744 0.4404442465104326 0.3264983834071807
4.0280140070035015 0.44954216121726503 0.296190788820974
4.061030515257629 0.4559922874084707 0.26513359732948194
4.094047023511756 0.4596704627335202 0.23354908143978448
4.127063531765883 0.46046563747705876 0.20168210684957152
4.16008004002001 0.45828368123699126 0.16980095448188448
4.193096548274137 0.4530517799151905 0.13819762249252038
4.226113056528264 0.4447233967392261 0.10718743070361916
4.259129564782391 0.4332837282369504 0.07710773032665916
4.292146073036518 0.41875553137089205 0.04831551023033829
4.325162581290646 0.40120513177879946 0.02118369231359963
4.358179089544772 0.38074834737578833 -0.003904071552646633
4.3911955977989 0.35755598092606217 -0.026560244134141913
4.424212106053027 0.33185845692850097 -0.04640195792352203
4.457228614307153 0.30394911269643826 -0.063061242363763
4.49024512256128 0.2741856140062148 -0.07619674467786745
4.523261630815408 0.24298896692703065 -0.08550659807871158
4.556278139069534 0.21083965377757138 -0.09074190784621178
4.589294647323662 0.178270543527051 -0.09172014591340139
4.622311155577789 0.1458564193581034 -0.08833759345774612
4.655327663831915 0.11420022214745564 -0.08057987732817803
4.688344172086043 0.08391640924963462 -0.06852963763106217
4.72136068034017 0.05561214144556506 -0.05237046102809123
4.754377188594297 0.029867295839956252 -0.03238642455924161
4.787393696848424 0.007214514035003929 -0.008956907434635066
4.820410205102552 -0.011879406621942371 0.017453286777424692
4.853426713356678 -0.027029511102479982 0.04630804416083479
4.886443221610805 -0.037944989787694665 0.0770174555564596
4.919459729864932 -0.04443700944705764 0.1089575990322793
4.9524762381190595 -0.04642168547339161 0.14149128194858052
4.985492746373186 -0.04391822869419468 0.1739884063063496
5.018509254627314 -0.03704269282118222 0.2058447347806895
5.0515257628814405 -0.0259980655869917 0.23649806538306734
5.084542271135567 -0.011061655665521239 0.26544112912548873
5.117558779389695 0.007429183405527395 0.2922308601426465
5.1505752876438216 0.029091974560470968 0.3164940071469531
5.183591795897949 0.0535137801269124 0.337929324474948
5.216608304152076 0.08026487717110785 0.3563067795956127
5.2496248124062035 0.10891091941283378 0.3714643349749687
5.28264132066033 0.13902326405413795 0.3833029104017277
5.315657828914457 0.17018732598435085 0.3917801198982889
5.348674337168584 0.20200897290480518 0.3969033216358354
5.381690845422711 0.2341190874653224 0.39872243673862023
5.414707353676838 0.26617649692725676 0.39732289843718677
5.447723861930966 0.2978695115382023 0.3928189983936089
5.480740370185092 0.32891632621242844 0.3853478102253848
5.51375687843922 0.35906453337854694 0.37506379599081013
5.546773386693347 0.3880899746970002 0.36213414162749646
5.579789894947473 0.4157951314802584 0.3467348220329487
5.612806403201601 0.44200722253805624 0.3290473643471073
5.645822911455728 0.46657614704128586 0.3092562570685456
5.678839419709855 0.4893723809703243 0.28754694069778464
5.711855927963982 0.5102849100110226 0.2641043104989057
5.744872436218109 0.5292192599372465 0.23911166177822263
5.777888944472235 0.5460956676564791 0.2127500111785847
5.810905452726363 0.5608474219786544 0.18519773258734126
5.84392196098049 0.5734193924107187 0.15663045236681453
5.876938469234617 0.5837667564159417 0.12722115501289366
5.909954977488744 0.5918539301267565 0.09714045651921199
5.942971485742872 0.5976537040045202 0.06655700832632157
5.975987993996998 0.6011465829816356 0.035637999545912985
6.009004502251125 0.6023203298321499 0.00454972903393751
6.042021010505253 0.6011697105738681 -0.02654177823388891
6.0750375187593795 0.5976964413249828 -0.057470134197305595
6.108054027013507 0.5919093369667567 -0.08806795310489386
6.141070535267634 0.5838246629621342 -0.11816624252548061
6.1740870435217605 0.5734666925122558 -0.1475938446316406
6.207103551775887 0.5608684716511424 -0.17617695488034152
6.240120060030015 0.5460727946110439 -0.2037387487437648
6.273136568284142 0.5291333905281632 -0.2300991516807528
6.306153076538269 0.5101163199448782 -0.25507479299282865
6.339169584792397 0.4891015751929251 -0.2784791904117061
6.3721860930465235 0.4661848721541014 -0.30012321894592964
6.40520260130065 0.44147961159507554 -0.3198159242526414
6.438219109554777 0.41511897575439727 -0.33736574698127053
6.4712356178089045 0.38725810965616786 -0.3525822292967441
6.504252126063031 0.35807631638681564 -0.3652782769719622
6.537268634317159 0.3277791711816081 -0.37527304855238847
6.570285142571286 0.2966004308930138 -0.38239553530998
6.603301650825412 0.26480358409979554 -0.38648887989444614
6.636318159079539 0.23268285441177647 -0.3874154554597754
6.669334667333667 0.20056343811205016 -0.3850626883576876
6.702351175587793 0.16880073106470098 -0.37934955444780366
6.735367683841921 0.13777828402688047 -0.370233610846612
6.768384192096049 0.1079042265719246 -0.3577183423423932
6.801400700350175 0.079605924979653 -0.34186050797953904
6.834417208604302 0.05332269587096863 -0.3227770748564594
6.867433716858429 0.029496490912755163 -0.30065123303373464
6.900450225112556 0.008560601381642663 -0.2757369113009216
6.933466733366683 -0.009073397521973552 -0.24836117490444776
6.966483241620811 -0.02303004316601131 -0.21892390062941092
6.999499749874937 -0.03298509260473075 -0.1878942072150444
7.032516258129065 -0.03868051334677382 -0.15580327938073948
7.065532766383191 -0.03993837875409375 -0.12323346114075723
7.098549274637318 -0.03667261389340006 -0.0908037947450276
7.131565782891445 -0.028897566646454313 -0.0591525172950508
7.164582291145573 -0.016732527510193905 -0.028917357312133175
7.1975987993997 -0.0004015876601038323 -0.0007147509906033523
7.230615307653827 0.019771414106548126 0.024880723026078987
7.263631815907954 0.043372690537233805 0.04735534501821207
7.2966483241620805 0.06991247259467372 0.06627244722624988
7.329664832416208 0.0988422090122443 0.08128479300153074
7.362681340670335 0.12957381392496695 0.09214248130380397
7.3956978489244625 0.16149966366873433 0.09869611742778564
7.428714357178589 0.1940120729404369 0.10089539360715143
7.461730865432717 0.22652113698189102 0.09878357541637817
7.494747373686843 0.25847007669995964 0.09248865324140786
7.52776388194097 0.28934752459823126 0.08221207243347212
7.560780390195097 0.31869649749303847 0.06821599995776259
7.593796898449225 0.3461200805627072 0.050810033931998705
7.626813406703352 0.3712840711522557 0.030338140003733083
7.659829914957479 0.393916987569411 0.007166433488209053
7.692846423211606 0.4138079370197263 -0.018327754414086697
7.725862931465732 0.430802865557107 -0.04576526221354445
7.75887943971986 0.444799694222531 -0.07477282402458711
7.791895947973987 0.45574279394348255 -0.10498914678592312
7.824912456228114 0.46361718111490097 -0.13606943972366725
7.857928964482241 0.4684427376981386 -0.167688555842232
7.890945472736369 0.47026868287109724 -0.19954293736901532
7.923961980990494 0.4691684535156204 -0.23135156801760434
7.956978489244622 0.465235091346556 -0.262856130378638
7.989994997498749 0.4585771864756465 -0.29382055190313056
8.023011505752876 0.44931539045912017 -0.324030102152054
8.056028014007003 0.4375794853215958 -0.3532901806056282
8.08904452226113 0.4235059771518566 -0.3814249107691863
8.122061030515258 0.4072361719561876 -0.4082756341743934
8.155077538769385 0.3889146859184174 -0.4336993780960497
8.188094047023512 0.3686883406107842 -0.4575673538368847
8.221110555277638 0.34670539480887996 -0.4797635283842406
8.254127063531765 0.3231150674028235 -0.5001833009998933
8.287143571785892 0.29806730969878203 -0.5187323076233968
8.32016008004002 0.27171278959025824 -0.5353253695423342
8.353176588294147 0.2442030542210263 -0.5498855982819428
8.386193096548274 0.2156908415534695 -0.5623436657714981
8.4192096048024 0.18633051447747503 -0.572637247256996
8.452226113056527 0.15627859358723042 -0.5807106438769833
8.485242621310656 0.12569436639763898 -0.5865145920532225
8.518259129564782 0.09474055147326144 -0.590006267640854
8.55127563781891 0.06358399561820438 -0.5911494939121716
8.584292146073036 0.03239638084818183 -0.5899151636886255
8.617308654327164 0.0013549152636661566 -0.5862818870432965
8.650325162581291 -0.029357021898480412 -0.5802368766939832
8.683341670835416 -0.0595493158839491 -0.5717770831694752
8.716358179089545 -0.08902467398084393 -0.5609105906694353
8.749374687343671 -0.11757835395531552 -0.5476582817865846
8.7823911955978 -0.1449981210563765 -0.5320557743706998
8.815407703851925 -0.1710645008422722 -0.5141556261583095
8.848424212106053 -0.19555140494465595 -0.4940297916767905
8.88144072036018 -0.21822721629000397 -0.4717723006384797
8.914457228614307 -0.2388564281337198 -0.44750210689530245
8.947473736868435 -0.2572019360153998 -0.42136603150894536
8.98049024512256 -0.27302808144354274 -0.39354169240235887
9.013506753376689 -0.2861045383364136 -0.36424027672362486
9.046523261630815 -0.2962111151725865 -0.33370897159852236
9.079539769884944 -0.3031435144379327 -0.3022328265982269
9.112556278139069 -0.3067200434518587 -0.27013578062111243
9.145572786393195 -0.30678920487058264 -0.23778055221257968
9.178589294647324 -0.3032380103989629 -0.20556707250793732
9.21160580290145 -0.296000759144419 -0.17392914225284078
9.244622311155577 -0.28506790757487616 -0.14332902768639927
9.277638819409704 -0.27049454026888964 -0.11424978283566839
9.31065532766383 -0.25240784310883757 -0.08718520393020672
9.34367183591796 -0.23101290081733983 -0.0626274864989089
9.376688344172086 -0.20659610873662188 -0.041052861564412645
9.409704852426213 -0.1795255239685208 -0.022905719718649412
9.44272136068034 -0.15024759832864484 -0.008581966950093459
9.475737868934468 -0.11927994072005593 0.0015874377193833527
9.508754377188595 -0.08720004186766855 0.0073516709596892355
9.54177088544272 -0.054630236650678704 0.00855282428361693
9.574787393696848 -0.022219540581890906 0.005135214799658385
9.607803901950975 0.009376670676516811 -0.0028496259845509427
9.640820410205103 0.039517916428228404 -0.015242819442816158
9.673836918459228 0.06759944573531262 -0.03178299876405419
9.706853426713357 0.09307130976433006 -0.05211586835536976
9.739869934967484 0.11545448917156564 -0.07580777529862386
9.77288644322161 0.1343531775831204 -0.10236228995835456
9.805902951475739 0.14946268747779973 -0.13123859955835573
9.838919459729864 0.16057283889867213 -0.1618704635093078
9.871935967983992 0.16756706169938662 -0.1936845565975446
9.904952476238119 0.1704177454434994 -0.22611721059782094
9.937968984492247 0.16917858053237428 -0.2586288189983186
9.970985492746372 0.1639747405111039 -0.29071545211807354
10.004002001000499 0.15499176571258638 -0.3219175035837162
10.037018509254628 0.1424639408570554 -0.3518254255905676
10.070035017508754 0.12666283824098287 -0.3800827926196552
10.103051525762881 0.10788654876423291 -0.40638705534203956
10.136068034017008 0.08644996717601164 -0.4304884112161046
10.169084542271134 0.06267635218803577 -0.4521872345778973
10.202101050525263 0.03689025718220171 -0.4713304885719807
10.23511755877939 0.009411828342228867 -0.48780749627760833
10.268134067033516 -0.019447604958674647 -0.5015453898485379
10.301150575287643 -0.04938876988852908 -0.5125044932693874
10.334167083541772 -0.08012666862021173 -0.5206738328750202
10.367183591795898 -0.11139193392863422 -0.5260669142263539
10.400200100050023 -0.14293147812535642 -0.5287178565106138
10.433216608304152 -0.17450858134040592 -0.5286779371058313
10.466233116558278 -0.205902550252769 -0.5260125690880149
10.499249624812407 -0.23690806127731165 -0.5207987124249013
10.532266133066532 -0.2673342847609525 -0.513122704244843
10.56528264132066 -0.297003870147891 -0.5030784836524695
10.598299149574787 -0.32575185708788196 -0.49076618088815227
10.631315657828914 -0.3534245644699114 -0.4762910381227552
10.664332166083042 -0.37987849850025035 -0.4597626289273366
10.697348674337167 -0.4049793121763675 -0.4412943447073892
10.730365182591296 -0.428600841702162 -0.4210031185433964
10.763381690845423 -0.4506242403577402 -0.39900935946543775
10.796398199099551 -0.4709372268685504 -0.3754370728476334
10.829414707353676 -0.4894334632020013 -0.35041414505908763
10.862431215607803 -0.5060120757506971 -0.32407277253132805
10.895447723861931 -0.5205773338466627 -0.2965500168177905
10.928464232116058 -0.5330385003051976 -0.26798846787116126
10.961480740370185 -0.5433098700359015 -0.238536997503128
10.994497248624311 -0.5513110144881429 -0.2083515836732692
11.02751375687844 -0.5569672516013587 -0.17759618373263766
11.060530265132567 -0.5602103627502135 -0.14644363087407739
11.093546773386693 -0.5609795795956328 -0.1150765226715518
11.12656328164082 -0.5592228643819692 -0.08368806360021097
11.159579789894947 -0.5548985065673396 -0.052482814736523914
11.192596298149075 -0.5479770561334142 -0.021677293441114878
