!Created with skrf (http://scikit-rf.org).
# GHz S RI R 50 
!freq ReS11 ImS11
0.0 -0.9607843137254901 -1.059382074785988e-83
0.03303303303303303 -0.00223834772296397 -0.032522991341372626
0.06606606606606606 -0.009155118087871776 -0.06438777840658877
0.0990990990990991 -0.020504297821147842 -0.09495742868270227
0.13213213213213212 -0.0360263278761616 -0.12363619441270696
0.16516516516516516 -0.05537427557778342 -0.1498868552364936
0.1981981981981982 -0.07812864835004553 -0.17324454931928895
0.2312312312312312 -0.10381434252862742 -0.1933265029689807
0.26426426426426425 -0.1319185255933331 -0.2098374488588124
0.2972972972972973 -0.16190831124935157 -0.22257088136507608
0.3303303303303303 -0.19324725073911092 -0.23140659353679188
0.36336336336336333 -0.22540989496712055 -0.23630514865915433
0.3963963963963964 -0.2578939419169137 -0.23730005195977133
0.4294294294294294 -0.2902297378434762 -0.234488411170087
0.4624624624624624 -0.3219871227630179 -0.2280208251569232
0.4954954954954955 -0.35277978512972596 -0.21809113963385668
0.5285285285285285 -0.38226741148611254 -0.2049265805673895
0.5615615615615616 -0.41015598641366374 -0.18877863903003822
0.5945945945945946 -0.4361966236674676 -0.16991495098137782
0.6276276276276276 -0.4601833009737884 -0.14861230164289585
0.6606606606606606 -0.4819498391447582 -0.12515079186835398
0.6936936936936936 -0.5013664205205307 -0.09980913448986789
0.7267267267267267 -0.5183358901408415 -0.07286100067636887
0.7597597597597597 -0.532790031305262 -0.04457230693540962
0.7927927927927928 -0.5446859591972836 -0.015199318883633156
0.8258258258258259 -0.5540027342686059 0.015012555399388242
0.8588588588588588 -0.560738262082943 0.04582940511224827
0.8918918918918919 -0.564906518381819 0.07702900276744705
0.9249249249249248 -0.5665351167643037 0.10840063752083512
0.957957957957958 -0.565663220758273 0.13974468354749212
0.990990990990991 -0.562339791262673 0.1708719781009657
1.024024024024024 -0.5566221534130821 0.2016030716758267
1.057057057057057 -0.5485748629901361 0.23176740183026537
1.09009009009009 -0.5382688507825559 0.2612024329423951
1.1231231231231231 -0.5257808231830996 0.2897527965401544
1.156156156156156 -0.51119289820142 0.31726946082780577
1.1891891891891893 -0.494592457589428 0.343608953539665
1.222222222222222 -0.47607219754334484 0.3686326591605091
1.2552552552552552 -0.4557303621883234 0.39220620972639664
1.2882882882882885 -0.4336711455288673 0.41419898772166813
1.3213213213213213 -0.41000524855285536 0.4344837598813116
1.3543543543543544 -0.38485057851493715 0.4529364618559406
1.3873873873873872 -0.35833307690441946 0.46943615555521473
1.4204204204204205 -0.3305876610248222 0.48386518339262513
1.4534534534534533 -0.3017592612663651 0.49610954641497107
1.4864864864864864 -0.27200393181565286 0.5060595361667959
1.5195195195195195 -0.2414900064901602 0.5136106527927569
1.5525525525525525 -0.2103992633888093 0.5186648438996921
1.5855855855855856 -0.1789280519295782 0.5211320995401056
1.6186186186186184 -0.14728832349210286 0.520932437644926
1.6516516516516517 -0.11570849232344418 0.5179983104624564
1.6846846846846846 -0.08443403683778328 0.512277455015146
1.7177177177177176 -0.05372773349826787 0.5037361980742742
1.7507507507507507 -0.023869397097153633 0.49236320738315764
1.7837837837837838 0.004845016003504954 0.4781736545511046
1.8168168168168168 0.03210509901046299 0.4612137201031654
1.8498498498498497 0.05758864510146326 0.4415653269749212
1.8828828828828827 0.08096541937660645 0.41935093547921554
1.915915915915916 0.1019021974689631 0.39473817190341487
1.9489489489489489 0.12006917942684271 0.36794399763972857
1.981981981981982 0.1351478272114771 0.3392380615356177
2.015015015015015 0.14684008687984546 0.3089448228965454
2.048048048048048 0.1548788414331711 0.2774439966250912
2.0810810810810807 0.1590393004097001 0.24516886748866856
2.114114114114114 0.15915087571994668 0.21260206006942658
2.1471471471471473 0.15510893409825713 0.1802684454354823
2.18018018018018 0.14688567494448646 0.14872502126355452
2.213213213213213 0.13453928277943666 0.11854781758620914
2.2462462462462462 0.11822047184628977 0.09031614364704502
2.279279279279279 0.09817559888594708 0.0645947789123069
2.312312312312312 0.07474568197069538 0.04191498882731077
2.3453453453453457 0.0483609271953533 0.022755472470032095
2.3783783783783785 0.019530711881902012 0.007524484004827024
2.4114114114114114 -0.01117063400438805 -0.0034556194978135656
2.444444444444444 -0.04312151720035112 -0.009960280317336914
2.4774774774774775 -0.07567317922173951 -0.011870230977055675
2.5105105105105103 -0.10817091717558196 -0.00917407804287231
2.543543543543543 -0.13997505707897137 -0.00196590442934022
2.576576576576577 -0.17048037480600836 0.00956176455394227
2.6096096096096097 -0.19913286010344622 0.025128923727550632
2.6426426426426426 -0.22544301924770954 0.04438200931048932
2.6756756756756754 -0.24899526434659427 0.06690967104203686
2.7087087087087087 -0.26945329213655034 0.092259275510654
2.7417417417417416 -0.28656166928978305 0.11995311889608913
2.7747747747747744 -0.3001440846707782 0.14950350521231284
2.807807807807808 -0.31009888715784667 0.18042606899093164
2.840840840840841 -0.31639260058914886 0.21225095547094558
2.873873873873874 -0.31905210620274066 0.2445316893625647
2.9069069069069067 -0.3181561252796157 0.2768517465456242
2.93993993993994 -0.3138265404271065 0.3088289821652422
2.972972972972973 -0.3062199816904524 0.3401181618136597
3.0060060060060056 -0.29551998871353524 0.3704118938096536
3.039039039039039 -0.28192995345340177 0.3994402773301332
3.0720720720720722 -0.2656669561914199 0.4269695719769616
3.105105105105105 -0.2469565338433996 0.4528001677857656
3.138138138138138 -0.22602836417804723 0.47676409812596426
3.171171171171171 -0.20311281101996434 0.49872229729485207
3.204204204204204 -0.17843825134446634 0.5185617641508558
3.237237237237237 -0.15222909248462438 0.5361927556700102
3.27027027027027 -0.12470438362228128 0.5515461014437077
3.3033033033033035 -0.09607692777393795 0.5645707025487269
3.3363363363363363 -0.06655280647450068 0.5752312559586217
3.369369369369369 -0.03633123761818838 0.5835062283709327
3.4024024024024024 -0.005604696167035517 0.5893860904163084
3.4354354354354353 0.025440763223221557 0.5928718130187071
3.468468468468468 0.05662503379468056 0.5939736215080536
3.5015015015015014 0.08777337872467025 0.5927099993096422
3.5345345345345343 0.1187157850588357 0.5891069310798546
3.5675675675675675 0.1492862814416412 0.58319737453564
3.600600600600601 0.17932224725469578 0.5750209505218316
3.6336336336336337 0.2086637377189186 0.5646238417278008
3.6666666666666665 0.2371528476528706 0.5520588916082529
3.6996996996996994 0.26463313584809356 0.5373858962248818
3.7327327327327327 0.29094913235794023 0.5206720826718052
3.7657657657657655 0.31594595232910916 0.5019927682521035
3.798798798798799 0.3394690422550896 0.4814321944044872
3.831831831831832 0.36136408759928856 0.4590845282912085
3.864864864864865 0.38147711449116173 0.4350550226790719
3.8978978978978978 0.3996548224562857 0.4094613209742103
3.9309309309309306 0.41574518963877294 0.3824348886793444
3.963963963963964 0.4295983963408061 0.35412254478250654
3.9969969969969967 0.4410681164257644 0.32468805631420505
4.03003003003003 0.4500132285150309 0.29431374622085565
4.063063063063063 0.45629999904578383 0.26320204858839136
4.096096096096096 0.4598047859996262 0.23157692608335653
4.1291291291291286 0.4604173040650058 0.19968504252346067
4.162162162162161 0.4580444775494386 0.16779655944239574
4.195195195195195 0.45261488476822537 0.13620540067050096
4.228228228228228 0.4440837651953062 0.10522880538386514
4.261261261261261 0.43243851695845476 0.07520597078151524
4.2942942942942945 0.4177045565695421 0.04649557455937202
4.3273273273273265 0.39995134556804457 0.019471969672826363
4.36036036036036 0.37929831228116445 -0.005480134734813209
4.393393393393393 0.3559203158345267 -0.02797264597946973
4.426426426426426 0.3300522214585834 -0.04762277722455233
4.45945945945946 0.30199209169222635 -0.06406340684622482
4.4924924924924925 0.27210246066222565 -0.0769549182145968
4.525525525525525 0.24080916311948003 -0.08599816046986043
4.558558558558558 0.2085972506365527 -0.09094798641297219
4.591591591591592 0.1760036549592543 -0.09162664416152567
4.624624624624624 0.1436064563616465 -0.08793615047466556
4.657657657657658 0.11201087574429841 -0.0798686846398481
4.690690690690691 0.08183241309090869 -0.0675140400678499
4.723723723723723 0.05367786905031356 -0.051063276210005684
4.756756756756757 0.02812526875643593 -0.030807932289185287
4.789789789789789 0.005703912556022578 -0.007134484545088416
4.822822822822823 -0.01312413209274402 0.0194858812455374
4.8558558558558556 -0.027979834050038805 0.048511697819197314
4.888888888888888 -0.038579227699956954 0.07934898197342584
4.921921921921922 -0.04474091440253043 0.11137118261483323
4.954954954954955 -0.046388678809992506 0.14393999182724454
4.987987987987988 -0.04354928417278078 0.17642568173792086
5.021021021021021 -0.0363459009366584 0.208225753924576
5.054054054054054 -0.02498793397387681 0.2387809267949409
5.087087087087086 -0.009758214794442832 0.2675877978348068
5.12012012012012 0.009001394454710113 0.2942078543082201
5.153153153153154 0.030904969801301987 0.3182728239140335
5.186186186186186 0.05553717195725277 0.3394866224718919
5.2192192192192195 0.0824668539523374 0.35762434918863134
5.2522522522522515 0.11125911842741049 0.37252889559782276
5.285285285285285 0.14148551721529837 0.384105777424904
5.318318318318318 0.17273226844978903 0.3923167825344699
5.351351351351351 0.2046065151811111 0.3971729694590314
5.384384384384384 0.23674075935038355 0.39872746668698816
5.4174174174174174 0.2687956767836397 0.39706842768641176
5.45045045045045 0.30046155723793094 0.3923124020104806
5.483483483483483 0.33145862509129 0.3845982965734479
5.516516516516517 0.3615364881694009 0.37408202777013616
5.549549549549549 0.39047294112857067 0.36093190631598077
5.5825825825825826 0.41807232141344486 0.34532475235401455
5.615615615615616 0.4441635844652745 0.3274427071322303
5.648648648648648 0.4685982337124543 0.3074706873820041
5.681681681681682 0.4912482119753318 0.28559441719953066
5.714714714714715 0.5120038354275773 0.261998967596633
5.747747747747748 0.5307718296849807 0.2368677340334196
5.7807807807807805 0.547473509992011 0.21038178557516068
5.813813813813813 0.5620431336106145 0.1827195245577078
5.846846846846846 0.5744264419854052 0.15405660183109052
5.87987987987988 0.5845794025942208 0.12456603907125544
5.912912912912913 0.5924671551106482 0.09441851580791596
5.945945945945946 0.5980631631476327 0.06378278437844155
5.978978978978979 0.6013485710035291 0.032826180769508745
6.012012012012011 0.6023117641275771 0.0017152031203360452
6.045045045045045 0.6009481321405341 -0.02938386754034237
6.078078078078078 0.5972600339066471 -0.06030432800650877
6.111111111111111 0.5912569651013836 -0.09087841806828506
6.1441441441441444 0.5829559297163014 -0.12093671357109156
6.177177177177177 0.5723820177503823 -0.1503075722842494
6.21021021021021 0.5595691917054308 -0.1788166600825492
6.243243243243243 0.5445612841554761 -0.20628658858274393
6.276276276276276 0.5274132072816545 -0.23253670002307741
6.309309309309309 0.5081923724928685 -0.2573830407280926
6.342342342342342 0.4869803136740841 -0.28063857078751286
6.375375375375374 0.4638745007538354 -0.30211366431156644
6.408408408408408 0.43899032065944044 -0.3216169613671289
6.441441441441442 0.41246318982499586 -0.3389566388098778
6.474474474474474 0.3844507457716957 -0.35394217181394255
6.5075075075075075 0.35513504455849887 -0.3663866597670705
6.54054054054054 0.3247246660153972 -0.3761097878150322
6.573573573573573 0.2934565999375415 -0.38294148683318346
6.606606606606607 0.26159775475510827 -0.38672633781636223
6.63963963963964 0.22944589734886378 -0.38732873929577905
6.672672672672673 0.19732980146437604 -0.38463881619053447
6.7057057057057055 0.16560835664637202 -0.3785789937439301
6.738738738738738 0.13466837515001967 -0.36911109017876015
6.771771771771771 0.10492083745723602 -0.3562436974624796
6.804804804804805 0.0767953451355477 -0.34003952464486586
6.837837837837837 0.05073260998175196 -0.3206222793980163
6.870870870870871 0.0271749063502984 -0.2981825711323102
6.903903903903904 0.0065545516497328565 -0.2729822474815662
6.936936936936936 -0.010719344720054785 -0.24535654183339053
6.96996996996997 -0.024275421259663255 -0.21571343039005986
7.003003003003003 -0.03379523894546889 -0.1845296879884386
7.036036036036036 -0.03902824195345174 -0.1523433011812217
7.0690690690690685 -0.039805509979517754 -0.11974214300939227
7.102102102102102 -0.03605124205120782 -0.08734912104962084
7.135135135135135 -0.027790953107009894 -0.055804348887142766
7.168168168168168 -0.015155526870045663 -0.025745219362125815
7.201201201201202 0.0016194525985186445 0.0022144720180577175
7.234234234234234 0.02219929774386069 0.027505038259718267
7.267267267267267 0.04616053112510028 0.049619700431492206
7.300300300300299 0.07300529249539964 0.06813044654757547
7.333333333333333 0.10217886813251896 0.08269997417637481
7.366366366366367 0.1330891339015577 0.09308909618744055
7.399399399399399 0.16512660489800837 0.09915939517332897
7.4324324324324325 0.19768382904124043 0.10087131321420861
7.465465465465465 0.23017303145421794 0.0982782090023362
7.498498498498498 0.2620411756154745 0.09151716716836096
7.531531531531531 0.2927819123332247 0.08079748694213473
7.564564564564565 0.3219441952281247 0.06638780987986936
7.597597597597598 0.3491376159132301 0.048602785344927485
7.63063063063063 0.374034729566819 0.027790043192121642
7.663663663663664 0.39637079110803264 0.004318074340766952
7.696696696696696 0.4159414040111787 -0.021434561662591063
7.72972972972973 0.43259860644794096 -0.0490884560432489
7.762762762762762 0.4462458961029115 -0.07827090113214619
7.7957957957957955 0.45683264030322157 -0.10862179487554494
7.828828828828829 0.46434824575332856 -0.1397980092269446
7.861861861861861 0.4688163835281375 -0.17147638783346053
7.894894894894895 0.4702894884547457 -0.20335556789742854
7.927927927927928 0.4688436830813426 -0.23515682994746115
7.960960960960961 0.4645742180476691 -0.2666241731971443
7.9939939939939935 0.4575914738474298 -0.2975237983462252
8.027027027027026 0.4480175333739266 -0.3276431583367964
8.06006006006006 0.435983309107595 -0.35678971397196446
8.093093093093094 0.421626191770212 -0.38478950775535653
8.126126126126126 0.40508817705345335 -0.41148564733122256
8.15915915915916 0.38651442202337344 -0.4367367703742057
8.192192192192191 0.3660521815841355 -0.46041554609967683
8.225225225225225 0.34385007675905166 -0.4824072548155503
8.258258258258257 0.3200576495535605 -0.5026084759804115
8.29129129129129 0.29482516305739276 -0.5209259068142575
8.324324324324323 0.2683036096603609 -0.5372753273131919
8.357357357357357 0.24064489438606282 -0.5515807232185147
8.39039039039039 0.21200216409371744 -0.5637735757638767
8.423423423423422 0.18253025644839704 -0.5737923255749665
8.456456456456456 0.15238624496066333 -0.5815820176541069
8.48948948948949 0.12173005793252431 -0.5870941347013148
8.522522522522522 0.09072514972419948 -0.5902866268746745
8.555555555555555 0.05953920229323148 -0.5911241472538891
8.588588588588589 0.028344833377326295 -0.5895785035133474
8.621621621621623 -0.0026797150771331046 -0.5856293373866249
8.654654654654653 -0.033349938660517414 -0.57926504412912
8.687687687687687 -0.06347451815483757 -0.5704839440248843
8.72072072072072 -0.09285489544777381 -0.5592957166371962
8.753753753753754 -0.12128502790527235 -0.5457231054921997
8.786786786786786 -0.14855138032155915 -0.5298038956492968
8.81981981981982 -0.17443322323652413 -0.5115931585090034
8.852852852852852 -0.1987033163031077 -0.4911657465360433
8.885885885885886 -0.22112906469147234 -0.4686190046114449
8.91891891891892 -0.24147424406883014 -0.4440756438085999
8.951951951951951 -0.2595013939122002 -0.41768669702502487
8.984984984984985 -0.27497497775262986 -0.389634443947678
9.018018018018017 -0.28766539991579976 -0.3601351557056191
9.05105105105105 -0.2973539485505739 -0.32944146853202894
9.084084084084084 -0.30383870120428147 -0.2978441532264992
9.117117117117116 -0.3069413791125546 -0.2656730070238545
9.15015015015015 -0.3065150677172863 -0.2332965621228545
9.183183183183184 -0.3024526332717335 -0.20112028774005747
9.216216216216216 -0.29469556079499293 -0.16958296859195165
9.249249249249248 -0.28324282260996153 -0.13915098117705174
9.282282282282281 -0.2681592689701227 -0.11031026832943627
9.315315315315315 -0.24958292706649948 -0.08355593773017851
9.348348348348349 -0.22773052010716527 -0.05937958185340705
9.381381381381383 -0.20290049437677643 -0.038254628320533154
9.414414414414413 -0.17547288840120082 -0.02062026496281492
9.447447447447447 -0.14590550851725995 -0.006864717884033477
9.48048048048048 -0.11472609333769346 0.0026911391529760528
9.513513513513514 -0.08252044599326729 0.007808735410162199
9.546546546546548 -0.049916862045921016 0.00834417728036819
9.579579579579578 -0.01756754264908992 0.004257005043354289
9.612612612612612 0.013871992184106119 -0.004385484565523404
9.645645645645645 0.043764236103909344 -0.01740883204938198
9.67867867867868 0.07151040759265953 -0.03453699950018838
9.711711711711711 0.09656920741323712 -0.05540259224216821
9.744744744744745 0.11847247030455364 -0.07956097462264597
9.777777777777777 0.1368368585836106 -0.10650723690625707
9.81081081081081 0.15137111969748773 -0.13569479602113346
9.843843843843844 0.16187882510991325 -0.16655437810006152
9.876876876876876 0.16825687212992813 -0.1985122262496244
9.90990990990991 0.1704903222181527 -0.23100657508202305
9.942942942942944 0.16864434436856324 -0.2635016955244207
9.975975975975976 0.1628541237857472 -0.29549909800525637
10.009009009009008 0.1533135932687914 -0.32654575284229076
10.042042042042041 0.1402637672223219 -0.35623941668887366
10.075075075075075 0.12398133089176312 -0.3842313279020581
10.108108108108109 0.1047679851615209 -0.41022664718506363
10.14114114114114 0.08294089138318624 -0.4339830768386302
10.174174174174173 0.05882441702099747 -0.4553081019099158
10.207207207207206 0.032743261254206735 -0.47405527145798076
10.24024024024024 0.00501694455135937 -0.4901198902331458
10.273273273273274 -0.02404442203653706 -0.5034344310586103
10.306306306306308 -0.05414321599097549 -0.5139639146475887
10.339339339339338 -0.08499638246603947 -0.5217014425857782
10.372372372372372 -0.11633667274496823 -0.526664014595928
10.405405405405405 -0.14791319760382532 -0.5288887149559786
10.438438438438439 -0.1794914400019547 -0.5284293156531903
10.471471471471471 -0.2108528560591511 -0.5253533151728771
10.504504504504503 -0.2417941759562343 -0.519739410831772
10.537537537537537 -0.2721264989398881 -0.5116753880924144
10.57057057057057 -0.3016742601691922 -0.5012564010889281
10.603603603603604 -0.33027413239503367 -0.4885836134697188
10.636636636636636 -0.357773912756037 -0.4737631665641069
10.66966966966967 -0.3840314344093036 -0.45690544191398297
10.702702702702702 -0.40891353423783305 -0.4381245866482577
10.735735735735735 -0.4322951013428445 -0.41753827243707253
10.768768768768767 -0.4540582262442535 -0.3952676613927357
10.801801801801801 -0.4740914674638833 -0.37143755493653147
10.834834834834835 -0.49228925024120085 -0.3461767040553082
10.867867867867869 -0.5085514113272479 -0.3196182613154576
10.9009009009009 -0.5227829039260893 -0.2919003563080084
10.933933933933933 -0.5348936777191776 -0.2631667767116167
10.966966966966966 -0.5447987503304443 -0.2335677367336693
11.0 -0.5524184883710705 -0.20326071317786276
11.033033033033034 -0.5576791181187821 -0.17241132664137218
11.066066066066066 -0.5605134876707935 -0.14119424121636429
11.099099099099098 -0.5608621037337093 -0.10979405041673834
11.132132132132131 -0.5586744666678102 -0.07840610975171178
11.165165165165165 -0.5539107264759529 -0.04723726735170142
11.198198198198199 -0.5465436794899927 -0.016506433335042946
